<Qucs Dataset 2.1.0>
<indep frequency 1>
0.000000000000e+00
</indep>
<dep ac.i(vcp) frequency>
2.300000023000e+02+j0.000000000000e+00
</dep>
<dep ac.v(vp) frequency>
-2.300000000000e+02+j0.000000000000e+00
</dep>
<indep time 61>
2.000000000000e-03
4.000000000000e-03
8.000000000000e-03
1.600000000000e-02
3.200000000000e-02
6.400000000000e-02
1.280000000000e-01
2.560000000000e-01
5.120000000000e-01
9.120000000000e-01
1.312000000000e+00
1.712000000000e+00
2.112000000000e+00
2.512000000000e+00
2.912000000000e+00
3.312000000000e+00
3.712000000000e+00
4.112000000000e+00
4.512000000000e+00
4.912000000000e+00
5.312000000000e+00
5.712000000000e+00
6.112000000000e+00
6.512000000000e+00
6.912000000000e+00
7.312000000000e+00
7.712000000000e+00
8.112000000000e+00
8.512000000000e+00
8.912000000000e+00
9.312000000000e+00
9.712000000000e+00
1.000000000000e+01
1.004000000000e+01
1.012000000000e+01
1.028000000000e+01
1.060000000000e+01
1.100000000000e+01
1.140000000000e+01
1.180000000000e+01
1.220000000000e+01
1.260000000000e+01
1.300000000000e+01
1.340000000000e+01
1.380000000000e+01
1.420000000000e+01
1.460000000000e+01
1.500000000000e+01
1.540000000000e+01
1.580000000000e+01
1.620000000000e+01
1.660000000000e+01
1.700000000000e+01
1.740000000000e+01
1.780000000000e+01
1.820000000000e+01
1.860000000000e+01
1.900000000000e+01
1.940000000000e+01
1.980000000000e+01
2.000000000000e+01
</indep>
<dep tran.i(vcp) time>
1.574458359381e+02
2.295461498340e+02
2.882664400806e+01
-5.719867461990e+01
-1.108033461514e+02
-1.941954248074e+02
-2.081102241483e+02
1.772180476106e+02
-2.259260699269e+02
-2.259260699269e+02
-2.259260699269e+02
-2.259260699269e+02
-2.259260699269e+02
-2.259260699269e+02
-2.259260699269e+02
-2.259260699269e+02
-2.259260699268e+02
-2.259260699269e+02
-2.259260699269e+02
-2.259260699269e+02
-2.259260699269e+02
-2.259260699269e+02
-2.259260699269e+02
-2.259260699269e+02
-2.259260699269e+02
-2.259260699269e+02
-2.259260699269e+02
-2.259260699269e+02
-2.259260699269e+02
-2.259260699269e+02
-2.259260699269e+02
-2.259260699269e+02
-4.687423846320e-11
1.351906093792e+02
2.187430009353e+02
-2.187430009353e+02
-1.621728741105e-11
-1.352351757094e-10
-4.506928050806e-11
4.509661469324e-11
1.352625098945e-10
2.254284050958e-10
1.064105167975e-10
1.965764119988e-10
7.755852370053e-11
3.769082024014e-10
2.578903141031e-10
3.480562093044e-10
2.290383210061e-10
3.192042162074e-10
2.001863279091e-10
8.116843961080e-11
-3.784944868751e-11
-1.568673369858e-10
-4.850690087837e-10
-3.949031135824e-10
-7.231047853804e-10
-6.329388901791e-10
-7.519567784774e-10
-1.080158450275e-09
-9.374847692639e-11
</dep>
<dep tran.v(vp) time>
-1.574458343636e+02
-2.295461475385e+02
-2.882664371979e+01
5.719867404792e+01
1.108033450434e+02
1.941954228655e+02
2.081102220672e+02
-1.772180458384e+02
2.259260676676e+02
2.259260676676e+02
2.259260676676e+02
2.259260676676e+02
2.259260676676e+02
2.259260676676e+02
2.259260676676e+02
2.259260676676e+02
2.259260676676e+02
2.259260676676e+02
2.259260676676e+02
2.259260676676e+02
2.259260676676e+02
2.259260676676e+02
2.259260676676e+02
2.259260676676e+02
2.259260676676e+02
2.259260676676e+02
2.259260676676e+02
2.259260676677e+02
2.259260676677e+02
2.259260676677e+02
2.259260676677e+02
2.259260676677e+02
4.687423799445e-11
-1.351906080273e+02
-2.187429987478e+02
2.187429987479e+02
1.621728724888e-11
1.352351743570e-10
4.506928005737e-11
-4.509661424228e-11
-1.352625085419e-10
-2.254284028416e-10
-1.064105157334e-10
-1.965764100331e-10
-7.755852292494e-11
-3.769081986324e-10
-2.578903115242e-10
-3.480562058239e-10
-2.290383187157e-10
-3.192042130154e-10
-2.001863259072e-10
-8.116843879912e-11
3.784944830902e-11
1.568673354171e-10
4.850690039331e-10
3.949031096334e-10
7.231047781493e-10
6.329388838497e-10
7.519567709578e-10
1.080158439474e-09
9.374847598891e-11
</dep>
